T39FC 000:016.105   SEGGER J-Link V9.14a Log File
T39FC 000:016.379   DLL Compiled: Jan 28 2026 17:11:52
T39FC 000:016.422   Logging started @ 2026-03-06 03:42
T39FC 000:016.499   Process: E:\E_tools\keil\core\UV4\UV4.exe
T39FC 000:016.543 - 16.527ms 
T39FC 000:016.589 JLINK_SetWarnOutHandler(...)
T39FC 000:016.621 - 0.035ms 
T39FC 000:016.650 JLINK_OpenEx(...)
T39FC 000:021.593   Firmware: J-Link V9 compiled May  7 2021 16:26:12
T39FC 000:022.828   Firmware: J-Link V9 compiled May  7 2021 16:26:12
T39FC 000:023.094   Decompressing FW timestamp took 119 us
T39FC 000:029.896   Hardware: V9.70
T39FC 000:029.968   S/N: 609788888
T39FC 000:030.007   OEM: SEGGER
T39FC 000:030.045   Feature(s): GDB, RDI, FlashBP, FlashDL, JFlash
T39FC 000:031.284   Bootloader: (FW returned invalid version)
T39FC 000:032.631   TELNET listener socket opened on port 19021
T39FC 000:032.802   WEBSRV WEBSRV_Init(): Starting webserver thread(s)
T39FC 000:033.335   WEBSRV Webserver running on local port 19080
T39FC 000:033.718   Looking for J-Link GUI Server exe at: E:\E_tools\keil\core\ARM\Segger\JLinkGUIServer.exe
T39FC 000:034.259   Looking for J-Link GUI Server exe at: C:\Program Files\SEGGER\JLink\JLinkGUIServer.exe
T39FC 000:034.491   Forking J-Link GUI Server: C:\Program Files\SEGGER\JLink\JLinkGUIServer.exe
T39FC 000:140.247   J-Link GUI Server info: "J-Link GUI server V9.14a "
T39FC 000:172.259 - 155.600ms returns "O.K."
T39FC 000:172.380 JLINK_GetEmuCaps()
T39FC 000:172.417 - 0.033ms returns 0xB9FF7BBF
T39FC 000:172.445 JLINK_TIF_GetAvailable(...)
T39FC 000:172.720 - 0.274ms 
T39FC 000:172.779 JLINK_SetErrorOutHandler(...)
T39FC 000:172.805 - 0.026ms 
T39FC 000:172.855 JLINK_ExecCommand("ProjectFile = "E:\keil_project\f310c8t6Prj\02.new\JLinkSettings.ini"", ...). 
T39FC 000:192.519   Ref file found at: E:\E_tools\keil\core\ARM\Segger\JLinkDevices.ref
T39FC 000:193.044   REF file references invalid XML file: C:\Program Files\SEGGER\JLink\JLinkDevices.xml
T39FC 000:195.119 - 22.264ms returns 0x00
T39FC 000:204.660 JLINK_ExecCommand("Device = GD32F310C8", ...). 
T39FC 000:205.567   Flash bank @ 0x1FFFF800: SFL: Parsing sectorization info from ELF file
T39FC 000:205.634     FlashDevice.SectorInfo[0]: .SectorSize = 0x00000010, .SectorStartAddr = 0x00000000
T39FC 000:214.152   Device "GD32F310C8T6" selected.
T39FC 000:215.869 - 11.208ms returns 0x00
T39FC 000:215.932   ERROR: Unknown command
T39FC 000:215.980 JLINK_GetHardwareVersion()
T39FC 000:216.007 - 0.029ms returns 97000
T39FC 000:216.050 JLINK_GetDLLVersion()
T39FC 000:216.088 - 0.037ms returns 91401
T39FC 000:216.119 JLINK_GetOEMString(...)
T39FC 000:216.162 JLINK_GetFirmwareString(...)
T39FC 000:216.189 - 0.026ms 
T39FC 000:253.099 JLINK_GetDLLVersion()
T39FC 000:253.174 - 0.075ms returns 91401
T39FC 000:253.212 JLINK_GetCompileDateTime()
T39FC 000:253.248 - 0.035ms 
T39FC 000:260.856 JLINK_GetFirmwareString(...)
T39FC 000:260.943 - 0.086ms 
T39FC 000:271.549 JLINK_GetHardwareVersion()
T39FC 000:271.646 - 0.096ms returns 97000
T39FC 000:279.937 JLINK_GetSN()
T39FC 000:280.004 - 0.066ms returns 609788888
T39FC 000:291.814 JLINK_GetOEMString(...)
T39FC 000:320.078 JLINK_TIF_Select(JLINKARM_TIF_SWD)
T39FC 000:321.498 - 1.419ms returns 0x00
T39FC 000:321.612 JLINK_HasError()
T39FC 000:321.659 JLINK_SetSpeed(500)
T39FC 000:322.047 - 0.389ms 
T39FC 000:322.096 JLINK_GetId()
T39FC 000:329.679   InitTarget() start
T39FC 000:329.765    J-Link Script File: Executing InitTarget()
T39FC 000:340.857   SWD selected. Executing JTAG -> SWD switching sequence.
T39FC 000:358.997     No Protection is set.
T39FC 000:366.629   InitTarget() end - Took 29.3ms
T39FC 000:380.315   Found SW-DP with ID 0x2BA01477
T39FC 000:391.006   DPIDR: 0x2BA01477
T39FC 000:400.911   CoreSight SoC-400 or earlier
T39FC 000:409.045   Scanning AP map to find all available APs
T39FC 000:416.980   AP[1]: Stopped AP scan as end of AP map has been reached
T39FC 000:427.884   AP[0]: AHB-AP (IDR: 0x24770011, ADDR: 0x00000000)
T39FC 000:435.876   Iterating through AP map to find AHB-AP to use
T39FC 000:446.017   AP[0]: Core found
T39FC 000:451.874   AP[0]: AHB-AP ROM base: 0xE00FF000
T39FC 000:461.743   CPUID register: 0x410FC241. Implementer code: 0x41 (ARM)
T39FC 000:467.748   Found Cortex-M4 r0p1, Little endian.
T39FC 000:468.781   -- Max. mem block: 0x00010E60
T39FC 000:469.769   CPU_ReadMem(4 bytes @ 0xE000EDF0)
T39FC 000:470.796   CPU_WriteMem(4 bytes @ 0xE000EDF0)
T39FC 000:471.804   CPU_ReadMem(4 bytes @ 0xE0002000)
T39FC 000:478.862   FPUnit: 6 code (BP) slots and 2 literal slots
T39FC 000:478.945   CPU_ReadMem(4 bytes @ 0xE000EDFC)
T39FC 000:479.886   CPU_WriteMem(4 bytes @ 0xE000EDFC)
T39FC 000:481.089   CPU_ReadMem(4 bytes @ 0xE0001000)
T39FC 000:482.072   CPU_WriteMem(4 bytes @ 0xE0001000)
T39FC 000:483.065   CPU_ReadMem(4 bytes @ 0xE000ED88)
T39FC 000:484.102   CPU_WriteMem(4 bytes @ 0xE000ED88)
T39FC 000:485.181   CPU_ReadMem(4 bytes @ 0xE000ED88)
T39FC 000:486.191   CPU_WriteMem(4 bytes @ 0xE000ED88)
T39FC 000:493.342   CoreSight components:
T39FC 000:499.425   ROMTbl[0] @ E00FF000
T39FC 000:499.545   CPU_ReadMem(64 bytes @ 0xE00FF000)
T39FC 000:502.151   CPU_ReadMem(32 bytes @ 0xE000EFE0)
T39FC 000:509.881   [0][0]: E000E000 CID B105E00D PID 000BB00C SCS-M7
T39FC 000:509.969   CPU_ReadMem(32 bytes @ 0xE0001FE0)
T39FC 000:517.481   [0][1]: E0001000 CID B105E00D PID 003BB002 DWT
T39FC 000:517.567   CPU_ReadMem(32 bytes @ 0xE0002FE0)
T39FC 000:526.931   [0][2]: E0002000 CID B105E00D PID 002BB003 FPB
T39FC 000:527.013   CPU_ReadMem(32 bytes @ 0xE0000FE0)
T39FC 000:535.996   [0][3]: E0000000 CID B105E00D PID 003BB001 ITM
T39FC 000:536.123   CPU_ReadMem(32 bytes @ 0xE0040FE0)
T39FC 000:544.582   [0][4]: E0040000 CID B105900D PID 000BB9A1 TPIU
T39FC 000:545.255 - 223.158ms returns 0x2BA01477
T39FC 000:545.320 JLINK_GetDLLVersion()
T39FC 000:545.347 - 0.026ms returns 91401
T39FC 000:545.381 JLINK_CORE_GetFound()
T39FC 000:545.407 - 0.025ms returns 0xE0000FF
T39FC 000:545.438 JLINK_GetDebugInfo(0x100 = JLINKARM_ROM_TABLE_ADDR_INDEX)
T39FC 000:545.465   Value=0xE00FF000
T39FC 000:545.535 - 0.097ms returns 0
T39FC 000:551.345 JLINK_GetDebugInfo(0x100 = JLINKARM_ROM_TABLE_ADDR_INDEX)
T39FC 000:551.428   Value=0xE00FF000
T39FC 000:551.486 - 0.142ms returns 0
T39FC 000:551.527 JLINK_GetDebugInfo(0x101 = JLINKARM_DEBUG_INFO_ETM_ADDR_INDEX)
T39FC 000:551.564   Value=0x00000000
T39FC 000:551.619 - 0.092ms returns 0
T39FC 000:551.666 JLINK_ReadMemEx(0xE0041FF0, 0x10 Bytes, Flags = 0x02000004)
T39FC 000:551.741   CPU_ReadMem(16 bytes @ 0xE0041FF0)
T39FC 000:553.087   Data:  00 00 00 00 00 00 00 00 00 00 00 00 00 00 00 00
T39FC 000:553.140 - 1.474ms returns 16 (0x10)
T39FC 000:553.170 JLINK_GetDebugInfo(0x102 = JLINKARM_DEBUG_INFO_MTB_ADDR_INDEX)
T39FC 000:553.195   Value=0x00000000
T39FC 000:553.231 - 0.061ms returns 0
T39FC 000:553.257 JLINK_GetDebugInfo(0x103 = JLINKARM_DEBUG_INFO_TPIU_ADDR_INDEX)
T39FC 000:553.282   Value=0xE0040000
T39FC 000:553.343 - 0.085ms returns 0
T39FC 000:553.379 JLINK_GetDebugInfo(0x104 = JLINKARM_DEBUG_INFO_ITM_ADDR_INDEX)
T39FC 000:553.416   Value=0xE0000000
T39FC 000:553.453 - 0.073ms returns 0
T39FC 000:553.479 JLINK_GetDebugInfo(0x105 = JLINKARM_DEBUG_INFO_DWT_ADDR_INDEX)
T39FC 000:553.503   Value=0xE0001000
T39FC 000:553.539 - 0.060ms returns 0
T39FC 000:553.565 JLINK_GetDebugInfo(0x106 = JLINKARM_DEBUG_INFO_FPB_ADDR_INDEX)
T39FC 000:553.589   Value=0xE0002000
T39FC 000:553.625 - 0.059ms returns 0
T39FC 000:553.651 JLINK_GetDebugInfo(0x107 = JLINKARM_DEBUG_INFO_NVIC_ADDR_INDEX)
T39FC 000:553.675   Value=0xE000E000
T39FC 000:553.710 - 0.059ms returns 0
T39FC 000:553.736 JLINK_GetDebugInfo(0x10C = JLINKARM_DEBUG_INFO_DBG_ADDR_INDEX)
T39FC 000:553.790   Value=0xE000EDF0
T39FC 000:553.848 - 0.112ms returns 0
T39FC 000:553.903 JLINK_GetDebugInfo(0x01 = Unknown)
T39FC 000:553.954   Value=0x00000001
T39FC 000:553.991 - 0.088ms returns 0
T39FC 000:554.019 JLINK_ReadMemU32(0xE000ED00, 0x1 Items)
T39FC 000:554.049   CPU_ReadMem(4 bytes @ 0xE000ED00)
T39FC 000:555.081   Data:  41 C2 0F 41
T39FC 000:555.147   Debug reg: CPUID
T39FC 000:555.217 - 1.197ms returns 1 (0x1)
T39FC 000:555.247 JLINK_GetDebugInfo(0x10F = JLINKARM_DEBUG_INFO_HAS_CORTEX_M_SECURITY_EXT_INDEX)
T39FC 000:555.272   Value=0x00000000
T39FC 000:555.328 - 0.081ms returns 0
T39FC 000:555.356 JLINK_HasError()
T39FC 000:555.384 JLINK_SetResetType(JLINKARM_CM3_RESET_TYPE_NORMAL)
T39FC 000:555.409 - 0.025ms returns JLINKARM_CM3_RESET_TYPE_NORMAL
T39FC 000:555.440 JLINK_Reset()
T39FC 000:555.474   JLINK_GetResetTypeDesc
T39FC 000:555.499   - 0.025ms 
T39FC 000:566.812   Reset type: NORMAL (https://kb.segger.com/J-Link_Reset_Strategies)
T39FC 000:566.899   CPU is running
T39FC 000:566.954   CPU_WriteMem(4 bytes @ 0xE000EDF0)
T39FC 000:568.152   CPU is running
T39FC 000:568.215   CPU_WriteMem(4 bytes @ 0xE000EDFC)
T39FC 000:575.222   Reset: Halt core after reset via DEMCR.VC_CORERESET.
T39FC 000:583.390   Reset: Reset device via AIRCR.SYSRESETREQ.
T39FC 000:583.510   CPU is running
T39FC 000:583.554   CPU_WriteMem(4 bytes @ 0xE000ED0C)
T39FC 000:639.519   CPU_ReadMem(4 bytes @ 0xE000EDF0)
T39FC 000:640.563   CPU_ReadMem(4 bytes @ 0xE000EDF0)
T39FC 000:653.214   CPU_WriteMem(4 bytes @ 0xE000EDFC)
T39FC 000:659.735   CPU_ReadMem(4 bytes @ 0xE000EDF0)
T39FC 000:672.381   CPU_WriteMem(4 bytes @ 0xE0002000)
T39FC 000:673.433   CPU_ReadMem(4 bytes @ 0xE000EDFC)
T39FC 000:674.484   CPU_ReadMem(4 bytes @ 0xE0001000)
T39FC 000:675.455 - 120.014ms 
T39FC 000:675.537 JLINK_Halt()
T39FC 000:675.563 - 0.026ms returns 0x00
T39FC 000:675.602 JLINK_ReadMemU32(0xE000EDF0, 0x1 Items)
T39FC 000:675.632   CPU_ReadMem(4 bytes @ 0xE000EDF0)
T39FC 000:676.561   Data:  03 00 03 00
T39FC 000:676.611   Debug reg: DHCSR
T39FC 000:676.648 - 1.046ms returns 1 (0x1)
T39FC 000:676.686 JLINK_WriteU32(0xE000EDF0, 0xA05F0003)
T39FC 000:676.713   Debug reg: DHCSR
T39FC 000:676.999   CPU_WriteMem(4 bytes @ 0xE000EDF0)
T39FC 000:677.950 - 1.262ms returns 0 (0x00000000)
T39FC 000:678.021 JLINK_WriteU32(0xE000EDFC, 0x01000000)
T39FC 000:678.049   Debug reg: DEMCR
T39FC 000:678.091   CPU_WriteMem(4 bytes @ 0xE000EDFC)
T39FC 000:679.079 - 1.057ms returns 0 (0x00000000)
T39FC 000:706.494 JLINK_GetHWStatus(...)
T39FC 000:706.986 - 0.491ms returns 0
T39FC 000:726.520 JLINK_GetNumBPUnits(Type = 0xFFFFFF00)
T39FC 000:726.585 - 0.064ms returns 0x06
T39FC 000:726.613 JLINK_GetNumBPUnits(Type = 0xF0)
T39FC 000:726.639 - 0.025ms returns 0x2000
T39FC 000:726.670 JLINK_GetNumWPUnits()
T39FC 000:726.711 - 0.040ms returns 4
T39FC 000:745.915 JLINK_GetSpeed()
T39FC 000:745.979 - 0.063ms returns 500
T39FC 000:760.490 JLINK_ReadMemU32(0xE000E004, 0x1 Items)
T39FC 000:760.566   CPU_ReadMem(4 bytes @ 0xE000E004)
T39FC 000:761.563   Data:  02 00 00 00
T39FC 000:761.624 - 1.134ms returns 1 (0x1)
T39FC 000:761.655 JLINK_ReadMemU32(0xE000E004, 0x1 Items)
T39FC 000:761.684   CPU_ReadMem(4 bytes @ 0xE000E004)
T39FC 000:762.780   Data:  02 00 00 00
T39FC 000:762.835 - 1.179ms returns 1 (0x1)
T39FC 000:762.870 JLINK_WriteMemEx(0xE0001000, 0x0000001C Bytes, Flags = 0x02000004)
T39FC 000:762.897   Data:  01 00 00 00 00 00 00 00 00 00 00 00 00 00 00 00 ...
T39FC 000:762.944   CPU_WriteMem(28 bytes @ 0xE0001000)
T39FC 000:764.516 - 1.645ms returns 0x1C
T39FC 000:764.576 JLINK_Halt()
T39FC 000:764.604 - 0.026ms returns 0x00
T39FC 000:764.638 JLINK_IsHalted()
T39FC 000:764.687 - 0.047ms returns TRUE
T39FC 000:773.121 JLINK_WriteMem(0x20000000, 0x13C Bytes, ...)
T39FC 000:773.164   Data:  00 BE 0A E0 0D 78 2D 06 68 40 08 24 40 00 00 D3 ...
T39FC 000:773.435   CPU_WriteMem(316 bytes @ 0x20000000)
T39FC 000:782.186 - 9.062ms returns 0x13C
T39FC 000:782.361 JLINK_HasError()
T39FC 000:782.410 JLINK_WriteReg(R0, 0x08000000)
T39FC 000:782.450 - 0.040ms returns 0
T39FC 000:782.476 JLINK_WriteReg(R1, 0x00B71B00)
T39FC 000:782.501 - 0.024ms returns 0
T39FC 000:782.527 JLINK_WriteReg(R2, 0x00000001)
T39FC 000:782.551 - 0.024ms returns 0
T39FC 000:782.577 JLINK_WriteReg(R3, 0x00000000)
T39FC 000:782.601 - 0.024ms returns 0
T39FC 000:782.627 JLINK_WriteReg(R4, 0x00000000)
T39FC 000:782.656 - 0.029ms returns 0
T39FC 000:782.686 JLINK_WriteReg(R5, 0x00000000)
T39FC 000:782.729 - 0.043ms returns 0
T39FC 000:782.758 JLINK_WriteReg(R6, 0x00000000)
T39FC 000:782.783 - 0.024ms returns 0
T39FC 000:782.809 JLINK_WriteReg(R7, 0x00000000)
T39FC 000:782.833 - 0.023ms returns 0
T39FC 000:782.858 JLINK_WriteReg(R8, 0x00000000)
T39FC 000:782.883 - 0.024ms returns 0
T39FC 000:782.909 JLINK_WriteReg(R9, 0x20000134)
T39FC 000:782.933 - 0.024ms returns 0
T39FC 000:782.958 JLINK_WriteReg(R10, 0x00000000)
T39FC 000:782.983 - 0.024ms returns 0
T39FC 000:783.008 JLINK_WriteReg(R11, 0x00000000)
T39FC 000:783.033 - 0.024ms returns 0
T39FC 000:783.058 JLINK_WriteReg(R12, 0x00000000)
T39FC 000:783.083 - 0.024ms returns 0
T39FC 000:783.109 JLINK_WriteReg(R13 (SP), 0x20001000)
T39FC 000:783.134 - 0.025ms returns 0
T39FC 000:783.160 JLINK_WriteReg(R14, 0x20000001)
T39FC 000:783.184 - 0.024ms returns 0
T39FC 000:783.216 JLINK_WriteReg(R15 (PC), 0x20000038)
T39FC 000:783.242 - 0.031ms returns 0
T39FC 000:783.268 JLINK_WriteReg(XPSR, 0x01000000)
T39FC 000:783.292 - 0.024ms returns 0
T39FC 000:783.318 JLINK_WriteReg(MSP, 0x20001000)
T39FC 000:783.343 - 0.024ms returns 0
T39FC 000:783.369 JLINK_WriteReg(PSP, 0x20001000)
T39FC 000:783.394 - 0.025ms returns 0
T39FC 000:783.420 JLINK_WriteReg(CFBP, 0x00000000)
T39FC 000:783.444 - 0.024ms returns 0
T39FC 000:783.478 JLINK_SetBPEx(Addr = 0x20000000, Type = 0xFFFFFFF2)
T39FC 000:783.511   CPU_ReadMem(2 bytes @ 0x20000000)
T39FC 000:784.446 - 0.968ms returns 0x00000001
T39FC 000:784.490 JLINK_Go()
T39FC 000:784.519   CPU_WriteMem(2 bytes @ 0x20000000)
T39FC 000:785.435   CPU_ReadMem(4 bytes @ 0xE0001000)
T39FC 000:786.419   CPU_WriteMem(4 bytes @ 0xE0002008)
T39FC 000:786.477   CPU_WriteMem(4 bytes @ 0xE000200C)
T39FC 000:786.513   CPU_WriteMem(4 bytes @ 0xE0002010)
T39FC 000:786.557   CPU_WriteMem(4 bytes @ 0xE0002014)
T39FC 000:786.593   CPU_WriteMem(4 bytes @ 0xE0002018)
T39FC 000:786.630   CPU_WriteMem(4 bytes @ 0xE000201C)
T39FC 000:790.886   CPU_WriteMem(4 bytes @ 0xE0001004)
T39FC 000:808.488   Memory map 'after startup completion point' is active
T39FC 000:808.591 - 24.100ms 
T39FC 000:808.631 JLINK_IsHalted()
T39FC 000:820.211   CPU_ReadMem(2 bytes @ 0x20000000)
T39FC 000:821.193 - 12.561ms returns TRUE
T39FC 000:821.262 JLINK_ReadReg(R15 (PC))
T39FC 000:821.297 - 0.034ms returns 0x20000000
T39FC 000:821.334 JLINK_ClrBPEx(BPHandle = 0x00000001)
T39FC 000:821.364 - 0.030ms returns 0x00
T39FC 000:821.400 JLINK_ReadReg(R0)
T39FC 000:821.431 - 0.030ms returns 0x00000000
T39FC 000:822.295 JLINK_HasError()
T39FC 000:822.337 JLINK_WriteReg(R0, 0x08000000)
T39FC 000:822.363 - 0.025ms returns 0
T39FC 000:822.388 JLINK_WriteReg(R1, 0x00000400)
T39FC 000:822.412 - 0.023ms returns 0
T39FC 000:822.437 JLINK_WriteReg(R2, 0x000000FF)
T39FC 000:822.460 - 0.023ms returns 0
T39FC 000:822.486 JLINK_WriteReg(R3, 0x00000000)
T39FC 000:822.509 - 0.023ms returns 0
T39FC 000:822.534 JLINK_WriteReg(R4, 0x00000000)
T39FC 000:822.558 - 0.023ms returns 0
T39FC 000:822.583 JLINK_WriteReg(R5, 0x00000000)
T39FC 000:822.606 - 0.023ms returns 0
T39FC 000:822.637 JLINK_WriteReg(R6, 0x00000000)
T39FC 000:822.676 - 0.038ms returns 0
T39FC 000:822.718 JLINK_WriteReg(R7, 0x00000000)
T39FC 000:822.760 - 0.041ms returns 0
T39FC 000:822.785 JLINK_WriteReg(R8, 0x00000000)
T39FC 000:822.825 - 0.039ms returns 0
T39FC 000:822.852 JLINK_WriteReg(R9, 0x20000134)
T39FC 000:822.876 - 0.024ms returns 0
T39FC 000:822.901 JLINK_WriteReg(R10, 0x00000000)
T39FC 000:822.925 - 0.023ms returns 0
T39FC 000:822.950 JLINK_WriteReg(R11, 0x00000000)
T39FC 000:822.973 - 0.023ms returns 0
T39FC 000:822.998 JLINK_WriteReg(R12, 0x00000000)
T39FC 000:823.021 - 0.023ms returns 0
T39FC 000:823.046 JLINK_WriteReg(R13 (SP), 0x20001000)
T39FC 000:823.070 - 0.024ms returns 0
T39FC 000:823.096 JLINK_WriteReg(R14, 0x20000001)
T39FC 000:823.119 - 0.023ms returns 0
T39FC 000:823.144 JLINK_WriteReg(R15 (PC), 0x20000020)
T39FC 000:823.168 - 0.023ms returns 0
T39FC 000:823.280 JLINK_WriteReg(XPSR, 0x01000000)
T39FC 000:823.312 - 0.031ms returns 0
T39FC 000:823.337 JLINK_WriteReg(MSP, 0x20001000)
T39FC 000:823.361 - 0.023ms returns 0
T39FC 000:823.386 JLINK_WriteReg(PSP, 0x20001000)
T39FC 000:823.410 - 0.024ms returns 0
T39FC 000:823.435 JLINK_WriteReg(CFBP, 0x00000000)
T39FC 000:823.459 - 0.023ms returns 0
T39FC 000:823.485 JLINK_SetBPEx(Addr = 0x20000000, Type = 0xFFFFFFF2)
T39FC 000:823.510 - 0.026ms returns 0x00000002
T39FC 000:823.536 JLINK_Go()
T39FC 000:823.570   CPU_ReadMem(4 bytes @ 0xE0001000)
T39FC 000:835.120 - 11.582ms 
T39FC 000:835.183 JLINK_IsHalted()
T39FC 000:847.068   CPU_ReadMem(2 bytes @ 0x20000000)
T39FC 000:848.095 - 12.910ms returns TRUE
T39FC 000:848.173 JLINK_ReadReg(R15 (PC))
T39FC 000:848.203 - 0.029ms returns 0x20000000
T39FC 000:848.234 JLINK_ClrBPEx(BPHandle = 0x00000002)
T39FC 000:848.260 - 0.025ms returns 0x00
T39FC 000:848.291 JLINK_ReadReg(R0)
T39FC 000:848.316 - 0.025ms returns 0x00000001
T39FC 000:848.347 JLINK_HasError()
T39FC 000:848.378 JLINK_WriteReg(R0, 0x08000000)
T39FC 000:848.404 - 0.026ms returns 0
T39FC 000:848.434 JLINK_WriteReg(R1, 0x00000400)
T39FC 000:848.459 - 0.025ms returns 0
T39FC 000:848.489 JLINK_WriteReg(R2, 0x000000FF)
T39FC 000:848.542 - 0.053ms returns 0
T39FC 000:848.573 JLINK_WriteReg(R3, 0x00000000)
T39FC 000:848.598 - 0.025ms returns 0
T39FC 000:848.628 JLINK_WriteReg(R4, 0x00000000)
T39FC 000:848.653 - 0.025ms returns 0
T39FC 000:848.683 JLINK_WriteReg(R5, 0x00000000)
T39FC 000:848.709 - 0.025ms returns 0
T39FC 000:848.737 JLINK_WriteReg(R6, 0x00000000)
T39FC 000:848.763 - 0.025ms returns 0
T39FC 000:848.793 JLINK_WriteReg(R7, 0x00000000)
T39FC 000:848.826 - 0.032ms returns 0
T39FC 000:848.856 JLINK_WriteReg(R8, 0x00000000)
T39FC 000:848.881 - 0.025ms returns 0
T39FC 000:848.911 JLINK_WriteReg(R9, 0x20000134)
T39FC 000:848.936 - 0.025ms returns 0
T39FC 000:848.966 JLINK_WriteReg(R10, 0x00000000)
T39FC 000:848.990 - 0.024ms returns 0
T39FC 000:849.020 JLINK_WriteReg(R11, 0x00000000)
T39FC 000:849.055 - 0.034ms returns 0
T39FC 000:849.106 JLINK_WriteReg(R12, 0x00000000)
T39FC 000:849.132 - 0.026ms returns 0
T39FC 000:849.163 JLINK_WriteReg(R13 (SP), 0x20001000)
T39FC 000:849.188 - 0.026ms returns 0
T39FC 000:849.230 JLINK_WriteReg(R14, 0x20000001)
T39FC 000:849.274 - 0.044ms returns 0
T39FC 000:849.316 JLINK_WriteReg(R15 (PC), 0x200000A8)
T39FC 000:849.353 - 0.036ms returns 0
T39FC 000:849.385 JLINK_WriteReg(XPSR, 0x01000000)
T39FC 000:849.411 - 0.026ms returns 0
T39FC 000:849.441 JLINK_WriteReg(MSP, 0x20001000)
T39FC 000:849.467 - 0.025ms returns 0
T39FC 000:849.523 JLINK_WriteReg(PSP, 0x20001000)
T39FC 000:849.550 - 0.027ms returns 0
T39FC 000:849.580 JLINK_WriteReg(CFBP, 0x00000000)
T39FC 000:849.605 - 0.025ms returns 0
T39FC 000:849.635 JLINK_SetBPEx(Addr = 0x20000000, Type = 0xFFFFFFF2)
T39FC 000:849.662 - 0.026ms returns 0x00000003
T39FC 000:849.692 JLINK_Go()
T39FC 000:849.726   CPU_ReadMem(4 bytes @ 0xE0001000)
T39FC 000:861.367 - 11.673ms 
T39FC 000:861.489 JLINK_IsHalted()
T39FC 000:862.544 - 1.055ms returns FALSE
T39FC 000:862.614 JLINK_HasError()
T39FC 000:899.324 JLINK_IsHalted()
T39FC 000:911.158   CPU_ReadMem(2 bytes @ 0x20000000)
T39FC 000:912.213 - 12.888ms returns TRUE
T39FC 000:912.261 JLINK_ReadReg(R15 (PC))
T39FC 000:912.294 - 0.032ms returns 0x20000000
T39FC 000:912.327 JLINK_ClrBPEx(BPHandle = 0x00000003)
T39FC 000:912.358 - 0.030ms returns 0x00
T39FC 000:912.391 JLINK_ReadReg(R0)
T39FC 000:912.421 - 0.030ms returns 0x00000000
T39FC 000:913.597 JLINK_HasError()
T39FC 000:913.641 JLINK_WriteReg(R0, 0x08000400)
T39FC 000:913.667 - 0.026ms returns 0
T39FC 000:913.694 JLINK_WriteReg(R1, 0x00000400)
T39FC 000:913.718 - 0.024ms returns 0
T39FC 000:913.767 JLINK_WriteReg(R2, 0x000000FF)
T39FC 000:913.824 - 0.056ms returns 0
T39FC 000:913.859 JLINK_WriteReg(R3, 0x00000000)
T39FC 000:913.884 - 0.025ms returns 0
T39FC 000:913.914 JLINK_WriteReg(R4, 0x00000000)
T39FC 000:913.938 - 0.024ms returns 0
T39FC 000:913.968 JLINK_WriteReg(R5, 0x00000000)
T39FC 000:914.001 - 0.033ms returns 0
T39FC 000:914.031 JLINK_WriteReg(R6, 0x00000000)
T39FC 000:914.056 - 0.024ms returns 0
T39FC 000:914.085 JLINK_WriteReg(R7, 0x00000000)
T39FC 000:914.110 - 0.024ms returns 0
T39FC 000:914.168 JLINK_WriteReg(R8, 0x00000000)
T39FC 000:914.221 - 0.052ms returns 0
T39FC 000:914.257 JLINK_WriteReg(R9, 0x20000134)
T39FC 000:914.282 - 0.025ms returns 0
T39FC 000:914.312 JLINK_WriteReg(R10, 0x00000000)
T39FC 000:914.336 - 0.024ms returns 0
T39FC 000:914.366 JLINK_WriteReg(R11, 0x00000000)
T39FC 000:914.391 - 0.024ms returns 0
T39FC 000:914.420 JLINK_WriteReg(R12, 0x00000000)
T39FC 000:914.444 - 0.024ms returns 0
T39FC 000:914.473 JLINK_WriteReg(R13 (SP), 0x20001000)
T39FC 000:914.499 - 0.025ms returns 0
T39FC 000:914.528 JLINK_WriteReg(R14, 0x20000001)
T39FC 000:914.552 - 0.024ms returns 0
T39FC 000:914.582 JLINK_WriteReg(R15 (PC), 0x20000020)
T39FC 000:914.606 - 0.024ms returns 0
T39FC 000:914.635 JLINK_WriteReg(XPSR, 0x01000000)
T39FC 000:914.660 - 0.024ms returns 0
T39FC 000:914.689 JLINK_WriteReg(MSP, 0x20001000)
T39FC 000:914.713 - 0.024ms returns 0
T39FC 000:914.742 JLINK_WriteReg(PSP, 0x20001000)
T39FC 000:914.767 - 0.024ms returns 0
T39FC 000:914.796 JLINK_WriteReg(CFBP, 0x00000000)
T39FC 000:914.837 - 0.040ms returns 0
T39FC 000:914.870 JLINK_SetBPEx(Addr = 0x20000000, Type = 0xFFFFFFF2)
T39FC 000:914.897 - 0.027ms returns 0x00000004
T39FC 000:914.927 JLINK_Go()
T39FC 000:914.963   CPU_ReadMem(4 bytes @ 0xE0001000)
T39FC 000:926.351 - 11.423ms 
T39FC 000:926.429 JLINK_IsHalted()
T39FC 000:938.134   CPU_ReadMem(2 bytes @ 0x20000000)
T39FC 000:939.212 - 12.781ms returns TRUE
T39FC 000:939.344 JLINK_ReadReg(R15 (PC))
T39FC 000:939.404 - 0.059ms returns 0x20000000
T39FC 000:939.482 JLINK_ClrBPEx(BPHandle = 0x00000004)
T39FC 000:939.526 - 0.044ms returns 0x00
T39FC 000:939.583 JLINK_ReadReg(R0)
T39FC 000:939.632 - 0.048ms returns 0x00000001
T39FC 000:939.682 JLINK_HasError()
T39FC 000:939.719 JLINK_WriteReg(R0, 0x08000400)
T39FC 000:939.751 - 0.031ms returns 0
T39FC 000:939.787 JLINK_WriteReg(R1, 0x00000400)
T39FC 000:939.817 - 0.029ms returns 0
T39FC 000:939.852 JLINK_WriteReg(R2, 0x000000FF)
T39FC 000:939.882 - 0.029ms returns 0
T39FC 000:939.917 JLINK_WriteReg(R3, 0x00000000)
T39FC 000:939.947 - 0.029ms returns 0
T39FC 000:939.981 JLINK_WriteReg(R4, 0x00000000)
T39FC 000:940.010 - 0.029ms returns 0
T39FC 000:940.046 JLINK_WriteReg(R5, 0x00000000)
T39FC 000:940.075 - 0.029ms returns 0
T39FC 000:940.110 JLINK_WriteReg(R6, 0x00000000)
T39FC 000:940.140 - 0.029ms returns 0
T39FC 000:940.175 JLINK_WriteReg(R7, 0x00000000)
T39FC 000:940.205 - 0.029ms returns 0
T39FC 000:940.240 JLINK_WriteReg(R8, 0x00000000)
T39FC 000:940.270 - 0.029ms returns 0
T39FC 000:940.305 JLINK_WriteReg(R9, 0x20000134)
T39FC 000:940.335 - 0.029ms returns 0
T39FC 000:940.370 JLINK_WriteReg(R10, 0x00000000)
T39FC 000:940.397 - 0.027ms returns 0
T39FC 000:940.426 JLINK_WriteReg(R11, 0x00000000)
T39FC 000:940.483 - 0.056ms returns 0
T39FC 000:940.516 JLINK_WriteReg(R12, 0x00000000)
T39FC 000:940.550 - 0.033ms returns 0
T39FC 000:940.579 JLINK_WriteReg(R13 (SP), 0x20001000)
T39FC 000:940.603 - 0.024ms returns 0
T39FC 000:940.632 JLINK_WriteReg(R14, 0x20000001)
T39FC 000:940.656 - 0.023ms returns 0
T39FC 000:940.697 JLINK_WriteReg(R15 (PC), 0x200000A8)
T39FC 000:940.722 - 0.025ms returns 0
T39FC 000:940.754 JLINK_WriteReg(XPSR, 0x01000000)
T39FC 000:940.787 - 0.033ms returns 0
T39FC 000:940.816 JLINK_WriteReg(MSP, 0x20001000)
T39FC 000:940.840 - 0.024ms returns 0
T39FC 000:940.869 JLINK_WriteReg(PSP, 0x20001000)
T39FC 000:940.892 - 0.023ms returns 0
T39FC 000:940.921 JLINK_WriteReg(CFBP, 0x00000000)
T39FC 000:940.945 - 0.023ms returns 0
T39FC 000:940.979 JLINK_SetBPEx(Addr = 0x20000000, Type = 0xFFFFFFF2)
T39FC 000:941.029 - 0.050ms returns 0x00000005
T39FC 000:941.082 JLINK_Go()
T39FC 000:941.119   CPU_ReadMem(4 bytes @ 0xE0001000)
T39FC 000:952.550 - 11.466ms 
T39FC 000:952.639 JLINK_IsHalted()
T39FC 000:953.668 - 1.028ms returns FALSE
T39FC 000:953.742 JLINK_HasError()
T39FC 000:956.109 JLINK_IsHalted()
T39FC 000:957.118 - 1.008ms returns FALSE
T39FC 000:957.188 JLINK_HasError()
T39FC 000:958.734 JLINK_IsHalted()
T39FC 000:959.728 - 0.994ms returns FALSE
T39FC 000:959.781 JLINK_HasError()
T39FC 000:961.446 JLINK_IsHalted()
T39FC 000:962.449 - 1.002ms returns FALSE
T39FC 000:962.486 JLINK_HasError()
T39FC 000:964.064 JLINK_IsHalted()
T39FC 000:965.219 - 1.154ms returns FALSE
T39FC 000:965.269 JLINK_HasError()
T39FC 000:966.955 JLINK_IsHalted()
T39FC 000:968.119 - 1.163ms returns FALSE
T39FC 000:968.186 JLINK_HasError()
T39FC 000:970.180 JLINK_IsHalted()
T39FC 000:971.260 - 1.078ms returns FALSE
T39FC 000:971.325 JLINK_HasError()
T39FC 000:973.041 JLINK_IsHalted()
T39FC 000:984.721   CPU_ReadMem(2 bytes @ 0x20000000)
T39FC 000:985.818 - 12.776ms returns TRUE
T39FC 000:985.892 JLINK_ReadReg(R15 (PC))
T39FC 000:985.948 - 0.055ms returns 0x20000000
T39FC 000:985.985 JLINK_ClrBPEx(BPHandle = 0x00000005)
T39FC 000:986.017 - 0.033ms returns 0x00
T39FC 000:986.047 JLINK_ReadReg(R0)
T39FC 000:986.080 - 0.032ms returns 0x00000000
T39FC 000:986.880 JLINK_HasError()
T39FC 000:986.922 JLINK_WriteReg(R0, 0x08000800)
T39FC 000:986.947 - 0.025ms returns 0
T39FC 000:986.973 JLINK_WriteReg(R1, 0x00000400)
T39FC 000:986.996 - 0.023ms returns 0
T39FC 000:987.022 JLINK_WriteReg(R2, 0x000000FF)
T39FC 000:987.045 - 0.023ms returns 0
T39FC 000:987.076 JLINK_WriteReg(R3, 0x00000000)
T39FC 000:987.099 - 0.023ms returns 0
T39FC 000:987.124 JLINK_WriteReg(R4, 0x00000000)
T39FC 000:987.148 - 0.023ms returns 0
T39FC 000:987.172 JLINK_WriteReg(R5, 0x00000000)
T39FC 000:987.195 - 0.023ms returns 0
T39FC 000:987.220 JLINK_WriteReg(R6, 0x00000000)
T39FC 000:987.243 - 0.023ms returns 0
T39FC 000:987.268 JLINK_WriteReg(R7, 0x00000000)
T39FC 000:987.320 - 0.052ms returns 0
T39FC 000:987.346 JLINK_WriteReg(R8, 0x00000000)
T39FC 000:987.369 - 0.023ms returns 0
T39FC 000:987.394 JLINK_WriteReg(R9, 0x20000134)
T39FC 000:987.418 - 0.023ms returns 0
T39FC 000:987.443 JLINK_WriteReg(R10, 0x00000000)
T39FC 000:987.467 - 0.024ms returns 0
T39FC 000:987.519 JLINK_WriteReg(R11, 0x00000000)
T39FC 000:987.559 - 0.039ms returns 0
T39FC 000:987.585 JLINK_WriteReg(R12, 0x00000000)
T39FC 000:987.608 - 0.023ms returns 0
T39FC 000:987.634 JLINK_WriteReg(R13 (SP), 0x20001000)
T39FC 000:987.658 - 0.024ms returns 0
T39FC 000:987.683 JLINK_WriteReg(R14, 0x20000001)
T39FC 000:987.706 - 0.023ms returns 0
T39FC 000:987.732 JLINK_WriteReg(R15 (PC), 0x20000020)
T39FC 000:987.755 - 0.023ms returns 0
T39FC 000:987.780 JLINK_WriteReg(XPSR, 0x01000000)
T39FC 000:987.804 - 0.023ms returns 0
T39FC 000:987.829 JLINK_WriteReg(MSP, 0x20001000)
T39FC 000:987.852 - 0.023ms returns 0
T39FC 000:987.877 JLINK_WriteReg(PSP, 0x20001000)
T39FC 000:987.901 - 0.023ms returns 0
T39FC 000:987.933 JLINK_WriteReg(CFBP, 0x00000000)
T39FC 000:987.957 - 0.024ms returns 0
T39FC 000:987.983 JLINK_SetBPEx(Addr = 0x20000000, Type = 0xFFFFFFF2)
T39FC 000:988.008 - 0.025ms returns 0x00000006
T39FC 000:988.033 JLINK_Go()
T39FC 000:988.068   CPU_ReadMem(4 bytes @ 0xE0001000)
T39FC 000:999.408 - 11.373ms 
T39FC 000:999.477 JLINK_IsHalted()
T39FC 001:011.139   CPU_ReadMem(2 bytes @ 0x20000000)
T39FC 001:012.195 - 12.717ms returns TRUE
T39FC 001:012.277 JLINK_ReadReg(R15 (PC))
T39FC 001:012.306 - 0.029ms returns 0x20000000
T39FC 001:012.336 JLINK_ClrBPEx(BPHandle = 0x00000006)
T39FC 001:012.361 - 0.024ms returns 0x00
T39FC 001:012.389 JLINK_ReadReg(R0)
T39FC 001:012.413 - 0.023ms returns 0x00000001
T39FC 001:012.442 JLINK_HasError()
T39FC 001:012.478 JLINK_WriteReg(R0, 0x08000800)
T39FC 001:012.503 - 0.025ms returns 0
T39FC 001:012.532 JLINK_WriteReg(R1, 0x00000400)
T39FC 001:012.555 - 0.023ms returns 0
T39FC 001:012.584 JLINK_WriteReg(R2, 0x000000FF)
T39FC 001:012.608 - 0.024ms returns 0
T39FC 001:012.636 JLINK_WriteReg(R3, 0x00000000)
T39FC 001:012.660 - 0.023ms returns 0
T39FC 001:012.688 JLINK_WriteReg(R4, 0x00000000)
T39FC 001:012.715 - 0.027ms returns 0
T39FC 001:012.747 JLINK_WriteReg(R5, 0x00000000)
T39FC 001:012.771 - 0.023ms returns 0
T39FC 001:012.830 JLINK_WriteReg(R6, 0x00000000)
T39FC 001:012.855 - 0.024ms returns 0
T39FC 001:012.883 JLINK_WriteReg(R7, 0x00000000)
T39FC 001:012.907 - 0.024ms returns 0
T39FC 001:012.935 JLINK_WriteReg(R8, 0x00000000)
T39FC 001:012.958 - 0.023ms returns 0
T39FC 001:012.986 JLINK_WriteReg(R9, 0x20000134)
T39FC 001:013.010 - 0.023ms returns 0
T39FC 001:013.040 JLINK_WriteReg(R10, 0x00000000)
T39FC 001:013.063 - 0.023ms returns 0
T39FC 001:013.091 JLINK_WriteReg(R11, 0x00000000)
T39FC 001:013.115 - 0.023ms returns 0
T39FC 001:013.143 JLINK_WriteReg(R12, 0x00000000)
T39FC 001:013.166 - 0.023ms returns 0
T39FC 001:013.194 JLINK_WriteReg(R13 (SP), 0x20001000)
T39FC 001:013.218 - 0.024ms returns 0
T39FC 001:013.246 JLINK_WriteReg(R14, 0x20000001)
T39FC 001:013.284 - 0.037ms returns 0
T39FC 001:013.318 JLINK_WriteReg(R15 (PC), 0x200000A8)
T39FC 001:013.343 - 0.024ms returns 0
T39FC 001:013.371 JLINK_WriteReg(XPSR, 0x01000000)
T39FC 001:013.394 - 0.023ms returns 0
T39FC 001:013.422 JLINK_WriteReg(MSP, 0x20001000)
T39FC 001:013.446 - 0.023ms returns 0
T39FC 001:013.474 JLINK_WriteReg(PSP, 0x20001000)
T39FC 001:013.497 - 0.023ms returns 0
T39FC 001:013.525 JLINK_WriteReg(CFBP, 0x00000000)
T39FC 001:013.548 - 0.023ms returns 0
T39FC 001:013.577 JLINK_SetBPEx(Addr = 0x20000000, Type = 0xFFFFFFF2)
T39FC 001:013.602 - 0.024ms returns 0x00000007
T39FC 001:013.630 JLINK_Go()
T39FC 001:013.661   CPU_ReadMem(4 bytes @ 0xE0001000)
T39FC 001:024.916 - 11.285ms 
T39FC 001:024.999 JLINK_IsHalted()
T39FC 001:026.102 - 1.102ms returns FALSE
T39FC 001:026.179 JLINK_HasError()
T39FC 001:028.180 JLINK_IsHalted()
T39FC 001:029.265 - 1.083ms returns FALSE
T39FC 001:029.350 JLINK_HasError()
T39FC 001:031.369 JLINK_IsHalted()
T39FC 001:032.460 - 1.090ms returns FALSE
T39FC 001:032.545 JLINK_HasError()
T39FC 001:038.140 JLINK_IsHalted()
T39FC 001:039.137 - 0.996ms returns FALSE
T39FC 001:039.192 JLINK_HasError()
T39FC 001:040.654 JLINK_IsHalted()
T39FC 001:041.832 - 1.178ms returns FALSE
T39FC 001:041.887 JLINK_HasError()
T39FC 001:043.750 JLINK_IsHalted()
T39FC 001:044.885 - 1.134ms returns FALSE
T39FC 001:044.947 JLINK_HasError()
T39FC 001:050.443 JLINK_IsHalted()
T39FC 001:062.132   CPU_ReadMem(2 bytes @ 0x20000000)
T39FC 001:063.199 - 12.755ms returns TRUE
T39FC 001:063.297 JLINK_ReadReg(R15 (PC))
T39FC 001:063.332 - 0.035ms returns 0x20000000
T39FC 001:063.369 JLINK_ClrBPEx(BPHandle = 0x00000007)
T39FC 001:063.399 - 0.030ms returns 0x00
T39FC 001:063.434 JLINK_ReadReg(R0)
T39FC 001:063.463 - 0.029ms returns 0x00000000
T39FC 001:067.159 JLINK_HasError()
T39FC 001:067.223 JLINK_WriteReg(R0, 0x08000C00)
T39FC 001:067.251 - 0.027ms returns 0
T39FC 001:067.277 JLINK_WriteReg(R1, 0x00000400)
T39FC 001:067.300 - 0.023ms returns 0
T39FC 001:067.325 JLINK_WriteReg(R2, 0x000000FF)
T39FC 001:067.349 - 0.023ms returns 0
T39FC 001:067.374 JLINK_WriteReg(R3, 0x00000000)
T39FC 001:067.397 - 0.023ms returns 0
T39FC 001:067.422 JLINK_WriteReg(R4, 0x00000000)
T39FC 001:067.512 - 0.088ms returns 0
T39FC 001:067.577 JLINK_WriteReg(R5, 0x00000000)
T39FC 001:067.614 - 0.037ms returns 0
T39FC 001:067.650 JLINK_WriteReg(R6, 0x00000000)
T39FC 001:067.683 - 0.032ms returns 0
T39FC 001:067.710 JLINK_WriteReg(R7, 0x00000000)
T39FC 001:067.741 - 0.031ms returns 0
T39FC 001:067.768 JLINK_WriteReg(R8, 0x00000000)
T39FC 001:067.807 - 0.039ms returns 0
T39FC 001:067.837 JLINK_WriteReg(R9, 0x20000134)
T39FC 001:067.872 - 0.035ms returns 0
T39FC 001:067.907 JLINK_WriteReg(R10, 0x00000000)
T39FC 001:067.943 - 0.036ms returns 0
T39FC 001:067.979 JLINK_WriteReg(R11, 0x00000000)
T39FC 001:068.003 - 0.023ms returns 0
T39FC 001:068.028 JLINK_WriteReg(R12, 0x00000000)
T39FC 001:068.051 - 0.023ms returns 0
T39FC 001:068.077 JLINK_WriteReg(R13 (SP), 0x20001000)
T39FC 001:068.101 - 0.024ms returns 0
T39FC 001:068.126 JLINK_WriteReg(R14, 0x20000001)
T39FC 001:068.149 - 0.023ms returns 0
T39FC 001:068.240 JLINK_WriteReg(R15 (PC), 0x20000020)
T39FC 001:068.293 - 0.053ms returns 0
T39FC 001:068.320 JLINK_WriteReg(XPSR, 0x01000000)
T39FC 001:068.343 - 0.023ms returns 0
T39FC 001:068.369 JLINK_WriteReg(MSP, 0x20001000)
T39FC 001:068.392 - 0.023ms returns 0
T39FC 001:068.417 JLINK_WriteReg(PSP, 0x20001000)
T39FC 001:068.441 - 0.023ms returns 0
T39FC 001:068.466 JLINK_WriteReg(CFBP, 0x00000000)
T39FC 001:068.489 - 0.023ms returns 0
T39FC 001:068.515 JLINK_SetBPEx(Addr = 0x20000000, Type = 0xFFFFFFF2)
T39FC 001:068.540 - 0.025ms returns 0x00000008
T39FC 001:068.565 JLINK_Go()
T39FC 001:068.602   CPU_ReadMem(4 bytes @ 0xE0001000)
T39FC 001:079.948 - 11.381ms 
T39FC 001:080.062 JLINK_IsHalted()
T39FC 001:091.705   CPU_ReadMem(2 bytes @ 0x20000000)
T39FC 001:092.671 - 12.608ms returns TRUE
T39FC 001:092.730 JLINK_ReadReg(R15 (PC))
T39FC 001:092.788 - 0.058ms returns 0x20000000
T39FC 001:092.818 JLINK_ClrBPEx(BPHandle = 0x00000008)
T39FC 001:092.843 - 0.024ms returns 0x00
T39FC 001:092.872 JLINK_ReadReg(R0)
T39FC 001:092.897 - 0.024ms returns 0x00000001
T39FC 001:092.926 JLINK_HasError()
T39FC 001:092.956 JLINK_WriteReg(R0, 0x08000C00)
T39FC 001:092.982 - 0.025ms returns 0
T39FC 001:093.010 JLINK_WriteReg(R1, 0x00000400)
T39FC 001:093.035 - 0.024ms returns 0
T39FC 001:093.063 JLINK_WriteReg(R2, 0x000000FF)
T39FC 001:093.088 - 0.024ms returns 0
T39FC 001:093.116 JLINK_WriteReg(R3, 0x00000000)
T39FC 001:093.140 - 0.024ms returns 0
T39FC 001:093.169 JLINK_WriteReg(R4, 0x00000000)
T39FC 001:093.193 - 0.023ms returns 0
T39FC 001:093.221 JLINK_WriteReg(R5, 0x00000000)
T39FC 001:093.245 - 0.023ms returns 0
T39FC 001:093.273 JLINK_WriteReg(R6, 0x00000000)
T39FC 001:093.297 - 0.023ms returns 0
T39FC 001:093.325 JLINK_WriteReg(R7, 0x00000000)
T39FC 001:093.349 - 0.023ms returns 0
T39FC 001:093.378 JLINK_WriteReg(R8, 0x00000000)
T39FC 001:093.401 - 0.023ms returns 0
T39FC 001:093.430 JLINK_WriteReg(R9, 0x20000134)
T39FC 001:093.454 - 0.023ms returns 0
T39FC 001:093.482 JLINK_WriteReg(R10, 0x00000000)
T39FC 001:093.506 - 0.023ms returns 0
T39FC 001:093.542 JLINK_WriteReg(R11, 0x00000000)
T39FC 001:093.566 - 0.024ms returns 0
T39FC 001:093.595 JLINK_WriteReg(R12, 0x00000000)
T39FC 001:093.620 - 0.024ms returns 0
T39FC 001:093.665 JLINK_WriteReg(R13 (SP), 0x20001000)
T39FC 001:093.690 - 0.025ms returns 0
T39FC 001:093.744 JLINK_WriteReg(R14, 0x20000001)
T39FC 001:093.768 - 0.024ms returns 0
T39FC 001:093.797 JLINK_WriteReg(R15 (PC), 0x200000A8)
T39FC 001:093.821 - 0.024ms returns 0
T39FC 001:093.849 JLINK_WriteReg(XPSR, 0x01000000)
T39FC 001:093.874 - 0.024ms returns 0
T39FC 001:093.902 JLINK_WriteReg(MSP, 0x20001000)
T39FC 001:093.926 - 0.023ms returns 0
T39FC 001:093.966 JLINK_WriteReg(PSP, 0x20001000)
T39FC 001:094.015 - 0.048ms returns 0
T39FC 001:094.059 JLINK_WriteReg(CFBP, 0x00000000)
T39FC 001:094.084 - 0.025ms returns 0
T39FC 001:094.114 JLINK_SetBPEx(Addr = 0x20000000, Type = 0xFFFFFFF2)
T39FC 001:094.151 - 0.037ms returns 0x00000009
T39FC 001:094.190 JLINK_Go()
T39FC 001:094.223   CPU_ReadMem(4 bytes @ 0xE0001000)
T39FC 001:105.563 - 11.371ms 
T39FC 001:105.660 JLINK_IsHalted()
T39FC 001:106.623 - 0.962ms returns FALSE
T39FC 001:106.678 JLINK_HasError()
T39FC 001:117.293 JLINK_IsHalted()
T39FC 001:118.384 - 1.090ms returns FALSE
T39FC 001:118.429 JLINK_HasError()
T39FC 001:120.483 JLINK_IsHalted()
T39FC 001:121.478 - 0.994ms returns FALSE
T39FC 001:121.523 JLINK_HasError()
T39FC 001:123.699 JLINK_IsHalted()
T39FC 001:135.464   CPU_ReadMem(2 bytes @ 0x20000000)
T39FC 001:136.449 - 12.750ms returns TRUE
T39FC 001:136.510 JLINK_ReadReg(R15 (PC))
T39FC 001:136.537 - 0.027ms returns 0x20000000
T39FC 001:136.565 JLINK_ClrBPEx(BPHandle = 0x00000009)
T39FC 001:136.589 - 0.024ms returns 0x00
T39FC 001:136.619 JLINK_ReadReg(R0)
T39FC 001:136.643 - 0.024ms returns 0x00000000
T39FC 001:140.096 JLINK_HasError()
T39FC 001:140.172 JLINK_WriteReg(R0, 0x08001000)
T39FC 001:140.200 - 0.027ms returns 0
T39FC 001:140.226 JLINK_WriteReg(R1, 0x00000400)
T39FC 001:140.329 - 0.102ms returns 0
T39FC 001:140.356 JLINK_WriteReg(R2, 0x000000FF)
T39FC 001:140.380 - 0.024ms returns 0
T39FC 001:140.405 JLINK_WriteReg(R3, 0x00000000)
T39FC 001:140.429 - 0.024ms returns 0
T39FC 001:140.455 JLINK_WriteReg(R4, 0x00000000)
T39FC 001:140.479 - 0.024ms returns 0
T39FC 001:140.505 JLINK_WriteReg(R5, 0x00000000)
T39FC 001:140.528 - 0.023ms returns 0
T39FC 001:140.591 JLINK_WriteReg(R6, 0x00000000)
T39FC 001:140.615 - 0.024ms returns 0
T39FC 001:140.640 JLINK_WriteReg(R7, 0x00000000)
T39FC 001:140.673 - 0.032ms returns 0
T39FC 001:140.710 JLINK_WriteReg(R8, 0x00000000)
T39FC 001:140.734 - 0.024ms returns 0
T39FC 001:140.768 JLINK_WriteReg(R9, 0x20000134)
T39FC 001:140.796 - 0.027ms returns 0
T39FC 001:140.831 JLINK_WriteReg(R10, 0x00000000)
T39FC 001:140.855 - 0.024ms returns 0
T39FC 001:140.881 JLINK_WriteReg(R11, 0x00000000)
T39FC 001:140.905 - 0.023ms returns 0
T39FC 001:140.931 JLINK_WriteReg(R12, 0x00000000)
T39FC 001:140.955 - 0.023ms returns 0
T39FC 001:140.980 JLINK_WriteReg(R13 (SP), 0x20001000)
T39FC 001:141.005 - 0.025ms returns 0
T39FC 001:141.031 JLINK_WriteReg(R14, 0x20000001)
T39FC 001:141.055 - 0.024ms returns 0
T39FC 001:141.081 JLINK_WriteReg(R15 (PC), 0x20000020)
T39FC 001:141.105 - 0.024ms returns 0
T39FC 001:141.143 JLINK_WriteReg(XPSR, 0x01000000)
T39FC 001:141.187 - 0.044ms returns 0
T39FC 001:141.231 JLINK_WriteReg(MSP, 0x20001000)
T39FC 001:141.256 - 0.025ms returns 0
T39FC 001:141.281 JLINK_WriteReg(PSP, 0x20001000)
T39FC 001:141.305 - 0.024ms returns 0
T39FC 001:141.331 JLINK_WriteReg(CFBP, 0x00000000)
T39FC 001:141.355 - 0.023ms returns 0
T39FC 001:141.382 JLINK_SetBPEx(Addr = 0x20000000, Type = 0xFFFFFFF2)
T39FC 001:141.408 - 0.027ms returns 0x0000000A
T39FC 001:141.434 JLINK_Go()
T39FC 001:141.472   CPU_ReadMem(4 bytes @ 0xE0001000)
T39FC 001:152.794 - 11.358ms 
T39FC 001:152.869 JLINK_IsHalted()
T39FC 001:164.465   CPU_ReadMem(2 bytes @ 0x20000000)
T39FC 001:165.477 - 12.606ms returns TRUE
T39FC 001:165.544 JLINK_ReadReg(R15 (PC))
T39FC 001:165.572 - 0.028ms returns 0x20000000
T39FC 001:165.603 JLINK_ClrBPEx(BPHandle = 0x0000000A)
T39FC 001:165.627 - 0.024ms returns 0x00
T39FC 001:165.656 JLINK_ReadReg(R0)
T39FC 001:165.681 - 0.024ms returns 0x00000001
T39FC 001:165.710 JLINK_HasError()
T39FC 001:165.740 JLINK_WriteReg(R0, 0x08001000)
T39FC 001:165.765 - 0.025ms returns 0
T39FC 001:165.793 JLINK_WriteReg(R1, 0x00000400)
T39FC 001:165.818 - 0.024ms returns 0
T39FC 001:165.846 JLINK_WriteReg(R2, 0x000000FF)
T39FC 001:165.871 - 0.024ms returns 0
T39FC 001:165.899 JLINK_WriteReg(R3, 0x00000000)
T39FC 001:165.923 - 0.023ms returns 0
T39FC 001:165.951 JLINK_WriteReg(R4, 0x00000000)
T39FC 001:166.005 - 0.053ms returns 0
T39FC 001:166.034 JLINK_WriteReg(R5, 0x00000000)
T39FC 001:166.058 - 0.024ms returns 0
T39FC 001:166.087 JLINK_WriteReg(R6, 0x00000000)
T39FC 001:166.111 - 0.023ms returns 0
T39FC 001:166.139 JLINK_WriteReg(R7, 0x00000000)
T39FC 001:166.163 - 0.023ms returns 0
T39FC 001:166.192 JLINK_WriteReg(R8, 0x00000000)
T39FC 001:166.216 - 0.024ms returns 0
T39FC 001:166.244 JLINK_WriteReg(R9, 0x20000134)
T39FC 001:166.268 - 0.024ms returns 0
T39FC 001:166.297 JLINK_WriteReg(R10, 0x00000000)
T39FC 001:166.321 - 0.023ms returns 0
T39FC 001:166.349 JLINK_WriteReg(R11, 0x00000000)
T39FC 001:166.373 - 0.023ms returns 0
T39FC 001:166.408 JLINK_WriteReg(R12, 0x00000000)
T39FC 001:166.432 - 0.024ms returns 0
T39FC 001:166.461 JLINK_WriteReg(R13 (SP), 0x20001000)
T39FC 001:166.485 - 0.024ms returns 0
T39FC 001:166.514 JLINK_WriteReg(R14, 0x20000001)
T39FC 001:166.538 - 0.023ms returns 0
T39FC 001:166.567 JLINK_WriteReg(R15 (PC), 0x200000A8)
T39FC 001:166.591 - 0.024ms returns 0
T39FC 001:166.620 JLINK_WriteReg(XPSR, 0x01000000)
T39FC 001:166.644 - 0.024ms returns 0
T39FC 001:166.672 JLINK_WriteReg(MSP, 0x20001000)
T39FC 001:166.696 - 0.023ms returns 0
T39FC 001:166.725 JLINK_WriteReg(PSP, 0x20001000)
T39FC 001:166.749 - 0.024ms returns 0
T39FC 001:166.796 JLINK_WriteReg(CFBP, 0x00000000)
T39FC 001:166.830 - 0.033ms returns 0
T39FC 001:166.860 JLINK_SetBPEx(Addr = 0x20000000, Type = 0xFFFFFFF2)
T39FC 001:166.885 - 0.025ms returns 0x0000000B
T39FC 001:166.914 JLINK_Go()
T39FC 001:166.959   CPU_ReadMem(4 bytes @ 0xE0001000)
T39FC 001:178.411 - 11.495ms 
T39FC 001:178.505 JLINK_IsHalted()
T39FC 001:179.551 - 1.045ms returns FALSE
T39FC 001:179.631 JLINK_HasError()
T39FC 001:183.124 JLINK_IsHalted()
T39FC 001:184.270 - 1.146ms returns FALSE
T39FC 001:184.329 JLINK_HasError()
T39FC 001:186.285 JLINK_IsHalted()
T39FC 001:187.394 - 1.109ms returns FALSE
T39FC 001:187.473 JLINK_HasError()
T39FC 001:189.515 JLINK_IsHalted()
T39FC 001:190.662 - 1.147ms returns FALSE
T39FC 001:190.715 JLINK_HasError()
T39FC 001:192.222 JLINK_IsHalted()
T39FC 001:193.237 - 1.014ms returns FALSE
T39FC 001:193.286 JLINK_HasError()
T39FC 001:195.015 JLINK_IsHalted()
T39FC 001:196.151 - 1.136ms returns FALSE
T39FC 001:196.193 JLINK_HasError()
T39FC 001:198.240 JLINK_IsHalted()
T39FC 001:199.296 - 1.056ms returns FALSE
T39FC 001:199.343 JLINK_HasError()
T39FC 001:200.826 JLINK_IsHalted()
T39FC 001:212.469   CPU_ReadMem(2 bytes @ 0x20000000)
T39FC 001:213.459 - 12.631ms returns TRUE
T39FC 001:213.537 JLINK_ReadReg(R15 (PC))
T39FC 001:213.572 - 0.034ms returns 0x20000000
T39FC 001:213.609 JLINK_ClrBPEx(BPHandle = 0x0000000B)
T39FC 001:213.640 - 0.030ms returns 0x00
T39FC 001:213.676 JLINK_ReadReg(R0)
T39FC 001:213.766 - 0.089ms returns 0x00000000
T39FC 001:214.564 JLINK_HasError()
T39FC 001:214.606 JLINK_WriteReg(R0, 0x08001400)
T39FC 001:214.632 - 0.026ms returns 0
T39FC 001:214.657 JLINK_WriteReg(R1, 0x00000400)
T39FC 001:214.681 - 0.023ms returns 0
T39FC 001:214.736 JLINK_WriteReg(R2, 0x000000FF)
T39FC 001:214.760 - 0.023ms returns 0
T39FC 001:214.785 JLINK_WriteReg(R3, 0x00000000)
T39FC 001:214.808 - 0.023ms returns 0
T39FC 001:214.833 JLINK_WriteReg(R4, 0x00000000)
T39FC 001:214.856 - 0.023ms returns 0
T39FC 001:214.881 JLINK_WriteReg(R5, 0x00000000)
T39FC 001:214.904 - 0.023ms returns 0
T39FC 001:214.929 JLINK_WriteReg(R6, 0x00000000)
T39FC 001:214.952 - 0.023ms returns 0
T39FC 001:214.978 JLINK_WriteReg(R7, 0x00000000)
T39FC 001:215.001 - 0.023ms returns 0
T39FC 001:215.026 JLINK_WriteReg(R8, 0x00000000)
T39FC 001:215.050 - 0.023ms returns 0
T39FC 001:215.074 JLINK_WriteReg(R9, 0x20000134)
T39FC 001:215.098 - 0.023ms returns 0
T39FC 001:215.123 JLINK_WriteReg(R10, 0x00000000)
T39FC 001:215.146 - 0.023ms returns 0
T39FC 001:215.171 JLINK_WriteReg(R11, 0x00000000)
T39FC 001:215.194 - 0.023ms returns 0
T39FC 001:215.219 JLINK_WriteReg(R12, 0x00000000)
T39FC 001:215.242 - 0.023ms returns 0
T39FC 001:215.267 JLINK_WriteReg(R13 (SP), 0x20001000)
T39FC 001:215.290 - 0.023ms returns 0
T39FC 001:215.321 JLINK_WriteReg(R14, 0x20000001)
T39FC 001:215.359 - 0.038ms returns 0
T39FC 001:215.385 JLINK_WriteReg(R15 (PC), 0x20000020)
T39FC 001:215.409 - 0.023ms returns 0
T39FC 001:215.434 JLINK_WriteReg(XPSR, 0x01000000)
T39FC 001:215.458 - 0.023ms returns 0
T39FC 001:215.482 JLINK_WriteReg(MSP, 0x20001000)
T39FC 001:215.506 - 0.023ms returns 0
T39FC 001:215.531 JLINK_WriteReg(PSP, 0x20001000)
T39FC 001:215.554 - 0.023ms returns 0
T39FC 001:215.579 JLINK_WriteReg(CFBP, 0x00000000)
T39FC 001:215.602 - 0.023ms returns 0
T39FC 001:215.628 JLINK_SetBPEx(Addr = 0x20000000, Type = 0xFFFFFFF2)
T39FC 001:215.673 - 0.046ms returns 0x0000000C
T39FC 001:215.700 JLINK_Go()
T39FC 001:215.733   CPU_ReadMem(4 bytes @ 0xE0001000)
T39FC 001:227.187 - 11.485ms 
T39FC 001:227.244 JLINK_IsHalted()
T39FC 001:238.860   CPU_ReadMem(2 bytes @ 0x20000000)
T39FC 001:239.878 - 12.633ms returns TRUE
T39FC 001:239.989 JLINK_ReadReg(R15 (PC))
T39FC 001:240.017 - 0.029ms returns 0x20000000
T39FC 001:240.047 JLINK_ClrBPEx(BPHandle = 0x0000000C)
T39FC 001:240.072 - 0.024ms returns 0x00
T39FC 001:240.101 JLINK_ReadReg(R0)
T39FC 001:240.125 - 0.024ms returns 0x00000001
T39FC 001:240.155 JLINK_HasError()
T39FC 001:240.205 JLINK_WriteReg(R0, 0x08001400)
T39FC 001:240.240 - 0.035ms returns 0
T39FC 001:240.273 JLINK_WriteReg(R1, 0x00000400)
T39FC 001:240.297 - 0.024ms returns 0
T39FC 001:240.326 JLINK_WriteReg(R2, 0x000000FF)
T39FC 001:240.350 - 0.024ms returns 0
T39FC 001:240.378 JLINK_WriteReg(R3, 0x00000000)
T39FC 001:240.402 - 0.023ms returns 0
T39FC 001:240.430 JLINK_WriteReg(R4, 0x00000000)
T39FC 001:240.453 - 0.023ms returns 0
T39FC 001:240.481 JLINK_WriteReg(R5, 0x00000000)
T39FC 001:240.505 - 0.023ms returns 0
T39FC 001:240.533 JLINK_WriteReg(R6, 0x00000000)
T39FC 001:240.557 - 0.023ms returns 0
T39FC 001:240.585 JLINK_WriteReg(R7, 0x00000000)
T39FC 001:240.609 - 0.023ms returns 0
T39FC 001:240.637 JLINK_WriteReg(R8, 0x00000000)
T39FC 001:240.660 - 0.023ms returns 0
T39FC 001:240.689 JLINK_WriteReg(R9, 0x20000134)
T39FC 001:240.712 - 0.023ms returns 0
T39FC 001:240.792 JLINK_WriteReg(R10, 0x00000000)
T39FC 001:240.842 - 0.056ms returns 0
T39FC 001:240.882 JLINK_WriteReg(R11, 0x00000000)
T39FC 001:240.906 - 0.024ms returns 0
T39FC 001:240.935 JLINK_WriteReg(R12, 0x00000000)
T39FC 001:240.959 - 0.024ms returns 0
T39FC 001:240.988 JLINK_WriteReg(R13 (SP), 0x20001000)
T39FC 001:241.012 - 0.024ms returns 0
T39FC 001:241.040 JLINK_WriteReg(R14, 0x20000001)
T39FC 001:241.065 - 0.024ms returns 0
T39FC 001:241.093 JLINK_WriteReg(R15 (PC), 0x200000A8)
T39FC 001:241.116 - 0.023ms returns 0
T39FC 001:241.145 JLINK_WriteReg(XPSR, 0x01000000)
T39FC 001:241.169 - 0.024ms returns 0
T39FC 001:241.197 JLINK_WriteReg(MSP, 0x20001000)
T39FC 001:241.221 - 0.023ms returns 0
T39FC 001:241.249 JLINK_WriteReg(PSP, 0x20001000)
T39FC 001:241.272 - 0.023ms returns 0
T39FC 001:241.301 JLINK_WriteReg(CFBP, 0x00000000)
T39FC 001:241.325 - 0.024ms returns 0
T39FC 001:241.354 JLINK_SetBPEx(Addr = 0x20000000, Type = 0xFFFFFFF2)
T39FC 001:241.379 - 0.025ms returns 0x0000000D
T39FC 001:241.408 JLINK_Go()
T39FC 001:241.441   CPU_ReadMem(4 bytes @ 0xE0001000)
T39FC 001:252.838 - 11.429ms 
T39FC 001:252.916 JLINK_IsHalted()
T39FC 001:254.093 - 1.176ms returns FALSE
T39FC 001:254.146 JLINK_HasError()
T39FC 001:256.406 JLINK_IsHalted()
T39FC 001:257.461 - 1.054ms returns FALSE
T39FC 001:257.504 JLINK_HasError()
T39FC 001:259.599 JLINK_IsHalted()
T39FC 001:260.683 - 1.083ms returns FALSE
T39FC 001:260.727 JLINK_HasError()
T39FC 001:262.324 JLINK_IsHalted()
T39FC 001:263.418 - 1.093ms returns FALSE
T39FC 001:263.470 JLINK_HasError()
T39FC 001:265.579 JLINK_IsHalted()
T39FC 001:266.675 - 1.095ms returns FALSE
T39FC 001:266.731 JLINK_HasError()
T39FC 001:268.286 JLINK_IsHalted()
T39FC 001:269.394 - 1.107ms returns FALSE
T39FC 001:269.447 JLINK_HasError()
T39FC 001:271.486 JLINK_IsHalted()
T39FC 001:272.607 - 1.120ms returns FALSE
T39FC 001:272.657 JLINK_HasError()
T39FC 001:274.661 JLINK_IsHalted()
T39FC 001:286.524   CPU_ReadMem(2 bytes @ 0x20000000)
T39FC 001:287.582 - 12.920ms returns TRUE
T39FC 001:287.653 JLINK_ReadReg(R15 (PC))
T39FC 001:287.701 - 0.048ms returns 0x20000000
T39FC 001:287.758 JLINK_ClrBPEx(BPHandle = 0x0000000D)
T39FC 001:287.792 - 0.034ms returns 0x00
T39FC 001:287.823 JLINK_ReadReg(R0)
T39FC 001:287.848 - 0.024ms returns 0x00000000
T39FC 001:288.610 JLINK_HasError()
T39FC 001:288.651 JLINK_WriteReg(R0, 0x08001800)
T39FC 001:288.676 - 0.025ms returns 0
T39FC 001:288.701 JLINK_WriteReg(R1, 0x00000400)
T39FC 001:288.729 - 0.027ms returns 0
T39FC 001:288.773 JLINK_WriteReg(R2, 0x000000FF)
T39FC 001:288.797 - 0.024ms returns 0
T39FC 001:288.822 JLINK_WriteReg(R3, 0x00000000)
T39FC 001:288.845 - 0.023ms returns 0
T39FC 001:288.870 JLINK_WriteReg(R4, 0x00000000)
T39FC 001:288.894 - 0.023ms returns 0
T39FC 001:288.919 JLINK_WriteReg(R5, 0x00000000)
T39FC 001:288.942 - 0.023ms returns 0
T39FC 001:288.967 JLINK_WriteReg(R6, 0x00000000)
T39FC 001:288.990 - 0.023ms returns 0
T39FC 001:289.015 JLINK_WriteReg(R7, 0x00000000)
T39FC 001:289.039 - 0.023ms returns 0
T39FC 001:289.064 JLINK_WriteReg(R8, 0x00000000)
T39FC 001:289.115 - 0.050ms returns 0
T39FC 001:289.142 JLINK_WriteReg(R9, 0x20000134)
T39FC 001:289.166 - 0.023ms returns 0
T39FC 001:289.198 JLINK_WriteReg(R10, 0x00000000)
T39FC 001:289.222 - 0.023ms returns 0
T39FC 001:289.264 JLINK_WriteReg(R11, 0x00000000)
T39FC 001:289.328 - 0.064ms returns 0
T39FC 001:289.356 JLINK_WriteReg(R12, 0x00000000)
T39FC 001:289.380 - 0.024ms returns 0
T39FC 001:289.405 JLINK_WriteReg(R13 (SP), 0x20001000)
T39FC 001:289.429 - 0.024ms returns 0
T39FC 001:289.455 JLINK_WriteReg(R14, 0x20000001)
T39FC 001:289.479 - 0.023ms returns 0
T39FC 001:289.504 JLINK_WriteReg(R15 (PC), 0x20000020)
T39FC 001:289.527 - 0.023ms returns 0
T39FC 001:289.553 JLINK_WriteReg(XPSR, 0x01000000)
T39FC 001:289.576 - 0.023ms returns 0
T39FC 001:289.601 JLINK_WriteReg(MSP, 0x20001000)
T39FC 001:289.625 - 0.023ms returns 0
T39FC 001:289.650 JLINK_WriteReg(PSP, 0x20001000)
T39FC 001:289.673 - 0.023ms returns 0
T39FC 001:289.699 JLINK_WriteReg(CFBP, 0x00000000)
T39FC 001:289.722 - 0.023ms returns 0
T39FC 001:289.748 JLINK_SetBPEx(Addr = 0x20000000, Type = 0xFFFFFFF2)
T39FC 001:289.772 - 0.024ms returns 0x0000000E
T39FC 001:289.797 JLINK_Go()
T39FC 001:289.831   CPU_ReadMem(4 bytes @ 0xE0001000)
T39FC 001:301.376 - 11.578ms 
T39FC 001:301.434 JLINK_IsHalted()
T39FC 001:313.144   CPU_ReadMem(2 bytes @ 0x20000000)
T39FC 001:314.205 - 12.770ms returns TRUE
T39FC 001:314.265 JLINK_ReadReg(R15 (PC))
T39FC 001:314.293 - 0.028ms returns 0x20000000
T39FC 001:314.323 JLINK_ClrBPEx(BPHandle = 0x0000000E)
T39FC 001:314.347 - 0.024ms returns 0x00
T39FC 001:314.377 JLINK_ReadReg(R0)
T39FC 001:314.401 - 0.024ms returns 0x00000001
T39FC 001:314.432 JLINK_HasError()
T39FC 001:314.462 JLINK_WriteReg(R0, 0x08001800)
T39FC 001:314.500 - 0.037ms returns 0
T39FC 001:314.541 JLINK_WriteReg(R1, 0x00000400)
T39FC 001:314.566 - 0.024ms returns 0
T39FC 001:314.595 JLINK_WriteReg(R2, 0x000000FF)
T39FC 001:314.619 - 0.023ms returns 0
T39FC 001:314.647 JLINK_WriteReg(R3, 0x00000000)
